T7BA4 1639:261.996   SEGGER J-Link V7.94k Log File
T7BA4 1639:262.080   DLL Compiled: Feb 21 2024 16:24:45
T7BA4 1639:262.097   Logging started @ 2025-01-03 05:17
T7BA4 1639:262.112   Process: C:\Keil_v5\UV4\UV4.exe
T7BA4 1639:262.128 - 3471.598ms
T7BA4 1639:262.152 JLINK_SetWarnOutHandler(...)
T7BA4 1639:262.168 - 0.016ms
T7BA4 1639:262.185 JLINK_OpenEx(...)
T7BA4 1639:265.248   Firmware: J-Link Ultra V5-1 compiled Mar 14 2024 13:16:39
T7BA4 1639:265.886   Firmware: J-Link Ultra V5-1 compiled Mar 14 2024 13:16:39
T7BA4 1639:287.630   Hardware: V5.10
T7BA4 1639:287.699   S/N: 505101306
T7BA4 1639:287.733   OEM: SEGGER
T7BA4 1639:287.772   Feature(s): RDI, FlashBP, FlashDL, JFlash, GDB
T7BA4 1639:289.703   Bootloader: 2021 Apr 29
T7BA4 1639:290.072   USB speed mode: High speed (480 MBit/s)
T7BA4 1639:290.358   TELNET listener socket opened on port 19021
T7BA4 1639:297.222   WEBSRV WEBSRV_Init(): Starting webserver thread(s)
T7BA4 1639:297.709   WEBSRV Webserver running on local port 19080
T7BA4 1639:297.847   Looking for J-Link GUI Server exe at: C:\Keil_v5\ARM\Segger\JLinkGUIServer.exe
T7BA4 1639:297.911   Looking for J-Link GUI Server exe at: C:\Program Files\SEGGER\JLink_V796a\JLinkGUIServer.exe
T7BA4 1639:297.953   Forking J-Link GUI Server: C:\Program Files\SEGGER\JLink_V796a\JLinkGUIServer.exe
T7BA4 1639:306.311   J-Link GUI Server info: "J-Link GUI server V7.96a "
T7BA4 1639:308.015 - 45.827ms returns "O.K."
T7BA4 1639:308.129 JLINK_GetEmuCaps()
T7BA4 1639:308.171 - 0.040ms returns 0xB9FF7BBF
T7BA4 1639:308.209 JLINK_TIF_GetAvailable(...)
T7BA4 1639:308.546 - 0.336ms
T7BA4 1639:308.647 JLINK_SetErrorOutHandler(...)
T7BA4 1639:308.690 - 0.043ms
T7BA4 1639:308.736 JLINK_ExecCommand("ProjectFile = "C:\Users\JEM1HZ\Desktop\SPD1179_FW_V8_1_3 1\Project\0_Examples\18_7_Flash_MEEPROM_Emulation_Controller\MDK-ARM\JLinkSettings.ini"", ...). 
T7BA4 1639:314.002 - 5.265ms returns 0x00
T7BA4 1639:314.633 JLINK_ExecCommand("Device = ARMCM4_FP", ...). 
T7BA4 1639:314.808   Device "CORTEX-M4" selected.
T7BA4 1639:316.433 - 1.726ms returns 0x00
T7BA4 1639:316.492 JLINK_ExecCommand("DisableConnectionTimeout", ...). 
T7BA4 1639:316.519 - 0.002ms returns 0x01
T7BA4 1639:316.548 JLINK_GetHardwareVersion()
T7BA4 1639:316.570 - 0.021ms returns 51000
T7BA4 1639:316.594 JLINK_GetDLLVersion()
T7BA4 1639:316.615 - 0.021ms returns 79411
T7BA4 1639:316.638 JLINK_GetOEMString(...)
T7BA4 1639:316.662 JLINK_GetFirmwareString(...)
T7BA4 1639:316.684 - 0.021ms
T7BA4 1639:316.824 JLINK_GetDLLVersion()
T7BA4 1639:316.848 - 0.023ms returns 79411
T7BA4 1639:316.870 JLINK_GetCompileDateTime()
T7BA4 1639:316.889 - 0.019ms
T7BA4 1639:316.940 JLINK_GetFirmwareString(...)
T7BA4 1639:316.961 - 0.020ms
T7BA4 1639:317.009 JLINK_GetHardwareVersion()
T7BA4 1639:317.030 - 0.020ms returns 51000
T7BA4 1639:317.077 JLINK_GetSN()
T7BA4 1639:317.096 - 0.018ms returns 505101306
T7BA4 1639:317.147 JLINK_GetOEMString(...)
T7BA4 1639:317.217 JLINK_TIF_Select(JLINKARM_TIF_SWD)
T7BA4 1639:318.149 - 0.931ms returns 0x00
T7BA4 1639:318.210 JLINK_HasError()
T7BA4 1639:318.237 JLINK_SetSpeed(5000)
T7BA4 1639:318.556 - 0.318ms
T7BA4 1639:318.618 JLINK_GetId()
T7BA4 1639:319.698   Found SW-DP with ID 0x2BA01477
T7BA4 1639:321.579   DPIDR: 0x2BA01477
T7BA4 1639:321.649   CoreSight SoC-400 or earlier
T7BA4 1639:321.700   Scanning AP map to find all available APs
T7BA4 1639:322.835   AP[1]: Stopped AP scan as end of AP map has been reached
T7BA4 1639:323.212   AP[0]: AHB-AP (IDR: 0x24770011)
T7BA4 1639:323.382   Iterating through AP map to find AHB-AP to use
T7BA4 1639:324.454   AP[0]: Core found
T7BA4 1639:324.680   AP[0]: AHB-AP ROM base: 0xE00FF000
T7BA4 1639:325.081   CPUID register: 0x410FC241. Implementer code: 0x41 (ARM)
T7BA4 1639:325.499   Found Cortex-M4 r0p1, Little endian.
T7BA4 1639:326.384   -- Max. mem block: 0x0002FB90
T7BA4 1639:327.016   CPU_ReadMem(4 bytes @ 0xE000EDF0)
T7BA4 1639:327.395   CPU_WriteMem(4 bytes @ 0xE000EDF0)
T7BA4 1639:327.644   CPU_ReadMem(4 bytes @ 0xE0002000)
T7BA4 1639:327.945   FPUnit: 6 code (BP) slots and 2 literal slots
T7BA4 1639:328.064   CPU_ReadMem(4 bytes @ 0xE000EDFC)
T7BA4 1639:328.353   CPU_WriteMem(4 bytes @ 0xE000EDFC)
T7BA4 1639:328.618   CPU_ReadMem(4 bytes @ 0xE0001000)
T7BA4 1639:328.893   CPU_WriteMem(4 bytes @ 0xE0001000)
T7BA4 1639:329.150   CPU_ReadMem(4 bytes @ 0xE000ED88)
T7BA4 1639:329.393   CPU_WriteMem(4 bytes @ 0xE000ED88)
T7BA4 1639:329.626   CPU_ReadMem(4 bytes @ 0xE000ED88)
T7BA4 1639:329.867   CPU_WriteMem(4 bytes @ 0xE000ED88)
T7BA4 1639:330.114   CoreSight components:
T7BA4 1639:330.184   ROMTbl[0] @ E00FF000
T7BA4 1639:330.209   CPU_ReadMem(64 bytes @ 0xE00FF000)
T7BA4 1639:330.595   CPU_ReadMem(32 bytes @ 0xE000EFE0)
T7BA4 1639:330.977   [0][0]: E000E000 CID B105E00D PID 000BB00C SCS-M7
T7BA4 1639:331.006   CPU_ReadMem(32 bytes @ 0xE0001FE0)
T7BA4 1639:331.366   [0][1]: E0001000 CID B105E00D PID 003BB002 DWT
T7BA4 1639:331.393   CPU_ReadMem(32 bytes @ 0xE0002FE0)
T7BA4 1639:331.698   [0][2]: E0002000 CID B105E00D PID 002BB003 FPB
T7BA4 1639:331.724   CPU_ReadMem(32 bytes @ 0xE0000FE0)
T7BA4 1639:332.047   [0][3]: E0000000 CID B105E00D PID 003BB001 ITM
T7BA4 1639:332.072   CPU_ReadMem(32 bytes @ 0xE0040FE0)
T7BA4 1639:332.397   [0][4]: E0040000 CID B105900D PID 000BB9A1 TPIU
T7BA4 1639:332.571 - 13.953ms returns 0x2BA01477
T7BA4 1639:332.593 JLINK_GetDLLVersion()
T7BA4 1639:332.607 - 0.013ms returns 79411
T7BA4 1639:332.627 JLINK_CORE_GetFound()
T7BA4 1639:332.642 - 0.014ms returns 0xE0000FF
T7BA4 1639:332.658 JLINK_GetDebugInfo(0x100 = JLINKARM_ROM_TABLE_ADDR_INDEX)
T7BA4 1639:332.672   Value=0xE00FF000
T7BA4 1639:332.693 - 0.035ms returns 0
T7BA4 1639:332.738 JLINK_GetDebugInfo(0x100 = JLINKARM_ROM_TABLE_ADDR_INDEX)
T7BA4 1639:332.753   Value=0xE00FF000
T7BA4 1639:332.774 - 0.035ms returns 0
T7BA4 1639:332.789 JLINK_GetDebugInfo(0x101 = JLINKARM_DEBUG_INFO_ETM_ADDR_INDEX)
T7BA4 1639:332.803   Value=0x00000000
T7BA4 1639:332.824 - 0.035ms returns 0
T7BA4 1639:332.841 JLINK_ReadMemEx(0xE0041FF0, 0x10 Bytes, Flags = 0x02000004)
T7BA4 1639:332.865   CPU_ReadMem(16 bytes @ 0xE0041FF0)
T7BA4 1639:333.151   Data:  00 00 00 00 00 00 00 00 00 00 00 00 00 00 00 00
T7BA4 1639:333.175 - 0.334ms returns 16 (0x10)
T7BA4 1639:333.192 JLINK_GetDebugInfo(0x102 = JLINKARM_DEBUG_INFO_MTB_ADDR_INDEX)
T7BA4 1639:333.207   Value=0x00000000
T7BA4 1639:333.228 - 0.036ms returns 0
T7BA4 1639:333.243 JLINK_GetDebugInfo(0x103 = JLINKARM_DEBUG_INFO_TPIU_ADDR_INDEX)
T7BA4 1639:333.258   Value=0xE0040000
T7BA4 1639:333.279 - 0.035ms returns 0
T7BA4 1639:333.294 JLINK_GetDebugInfo(0x104 = JLINKARM_DEBUG_INFO_ITM_ADDR_INDEX)
T7BA4 1639:333.309   Value=0xE0000000
T7BA4 1639:333.330 - 0.035ms returns 0
T7BA4 1639:333.345 JLINK_GetDebugInfo(0x105 = JLINKARM_DEBUG_INFO_DWT_ADDR_INDEX)
T7BA4 1639:333.359   Value=0xE0001000
T7BA4 1639:333.381 - 0.036ms returns 0
T7BA4 1639:333.396 JLINK_GetDebugInfo(0x106 = JLINKARM_DEBUG_INFO_FPB_ADDR_INDEX)
T7BA4 1639:333.410   Value=0xE0002000
T7BA4 1639:333.432 - 0.035ms returns 0
T7BA4 1639:333.447 JLINK_GetDebugInfo(0x107 = JLINKARM_DEBUG_INFO_NVIC_ADDR_INDEX)
T7BA4 1639:333.459   Value=0xE000E000
T7BA4 1639:333.477 - 0.030ms returns 0
T7BA4 1639:333.491 JLINK_GetDebugInfo(0x10C = JLINKARM_DEBUG_INFO_DBG_ADDR_INDEX)
T7BA4 1639:333.504   Value=0xE000EDF0
T7BA4 1639:333.522 - 0.031ms returns 0
T7BA4 1639:333.536 JLINK_GetDebugInfo(0x01 = Unknown)
T7BA4 1639:333.549   Value=0x00000001
T7BA4 1639:333.567 - 0.031ms returns 0
T7BA4 1639:333.583 JLINK_ReadMemU32(0xE000ED00, 0x1 Items)
T7BA4 1639:333.599   CPU_ReadMem(4 bytes @ 0xE000ED00)
T7BA4 1639:333.868   Data:  41 C2 0F 41
T7BA4 1639:333.890   Debug reg: CPUID
T7BA4 1639:333.908 - 0.325ms returns 1 (0x1)
T7BA4 1639:333.923 JLINK_GetDebugInfo(0x10F = JLINKARM_DEBUG_INFO_HAS_CORTEX_M_SECURITY_EXT_INDEX)
T7BA4 1639:333.936   Value=0x00000000
T7BA4 1639:333.955 - 0.031ms returns 0
T7BA4 1639:333.969 JLINK_HasError()
T7BA4 1639:333.985 JLINK_SetResetType(JLINKARM_CM3_RESET_TYPE_NORMAL)
T7BA4 1639:333.999 - 0.013ms returns JLINKARM_CM3_RESET_TYPE_NORMAL
T7BA4 1639:334.016 JLINK_Reset()
T7BA4 1639:334.045   CPU is running
T7BA4 1639:334.065   CPU_WriteMem(4 bytes @ 0xE000EDF0)
T7BA4 1639:334.315   CPU is running
T7BA4 1639:334.336   CPU_WriteMem(4 bytes @ 0xE000EDFC)
T7BA4 1639:334.597   Reset: Halt core after reset via DEMCR.VC_CORERESET.
T7BA4 1639:334.957   Reset: Reset device via AIRCR.SYSRESETREQ.
T7BA4 1639:334.985   CPU is running
T7BA4 1639:335.008   CPU_WriteMem(4 bytes @ 0xE000ED0C)
T7BA4 1639:389.016   CPU_ReadMem(4 bytes @ 0xE000EDF0)
T7BA4 1639:389.566   CPU_ReadMem(4 bytes @ 0xE000EDF0)
T7BA4 1639:391.700   CPU_WriteMem(4 bytes @ 0xE000EDFC)
T7BA4 1639:398.220   CPU_ReadMem(4 bytes @ 0xE000EDF0)
T7BA4 1639:400.159   CPU_WriteMem(4 bytes @ 0xE0002000)
T7BA4 1639:400.575   CPU_ReadMem(4 bytes @ 0xE000EDFC)
T7BA4 1639:400.857   CPU_ReadMem(4 bytes @ 0xE0001000)
T7BA4 1639:401.122 - 67.105ms
T7BA4 1639:401.264 JLINK_HasError()
T7BA4 1639:401.316 JLINK_ReadReg(R15 (PC))
T7BA4 1639:401.341 - 0.024ms returns 0x000000E0
T7BA4 1639:401.362 JLINK_ReadReg(XPSR)
T7BA4 1639:401.382 - 0.020ms returns 0x01000000
T7BA4 1639:401.419 JLINK_Halt()
T7BA4 1639:401.438 - 0.019ms returns 0x00
T7BA4 1639:401.460 JLINK_ReadMemU32(0xE000EDF0, 0x1 Items)
T7BA4 1639:401.485   CPU_ReadMem(4 bytes @ 0xE000EDF0)
T7BA4 1639:401.764   Data:  03 00 03 00
T7BA4 1639:401.796   Debug reg: DHCSR
T7BA4 1639:401.826 - 0.365ms returns 1 (0x1)
T7BA4 1639:401.850 JLINK_WriteU32_64(0xE000EDF0, 0xA05F0003)
T7BA4 1639:401.869   Debug reg: DHCSR
T7BA4 1639:402.264   CPU_WriteMem(4 bytes @ 0xE000EDF0)
T7BA4 1639:402.570 - 0.720ms returns 0 (0x00000000)
T7BA4 1639:402.588 JLINK_WriteU32_64(0xE000EDFC, 0x01000000)
T7BA4 1639:402.601   Debug reg: DEMCR
T7BA4 1639:402.624   CPU_WriteMem(4 bytes @ 0xE000EDFC)
T7BA4 1639:403.000 - 0.412ms returns 0 (0x00000000)
T7BA4 1639:403.159 JLINK_GetHWStatus(...)
T7BA4 1639:403.361 - 0.201ms returns 0
T7BA4 1639:403.458 JLINK_GetNumBPUnits(Type = 0xFFFFFF00)
T7BA4 1639:403.475 - 0.016ms returns 0x06
T7BA4 1639:403.491 JLINK_GetNumBPUnits(Type = 0xF0)
T7BA4 1639:403.505 - 0.014ms returns 0x2000
T7BA4 1639:403.521 JLINK_GetNumWPUnits()
T7BA4 1639:403.536 - 0.014ms returns 4
T7BA4 1639:403.615 JLINK_GetSpeed()
T7BA4 1639:403.631 - 0.015ms returns 5000
T7BA4 1639:403.688 JLINK_ReadMemU32(0xE000E004, 0x1 Items)
T7BA4 1639:403.707   CPU_ReadMem(4 bytes @ 0xE000E004)
T7BA4 1639:404.070   Data:  01 00 00 00
T7BA4 1639:404.094 - 0.406ms returns 1 (0x1)
T7BA4 1639:404.111 JLINK_ReadMemU32(0xE000E004, 0x1 Items)
T7BA4 1639:404.128   CPU_ReadMem(4 bytes @ 0xE000E004)
T7BA4 1639:404.465   Data:  01 00 00 00
T7BA4 1639:404.498 - 0.386ms returns 1 (0x1)
T7BA4 1639:404.518 JLINK_WriteMemEx(0xE0001000, 0x0000001C Bytes, Flags = 0x02000004)
T7BA4 1639:404.533   Data:  01 00 00 00 00 00 00 00 00 00 00 00 00 00 00 00 ...
T7BA4 1639:404.560   CPU_WriteMem(28 bytes @ 0xE0001000)
T7BA4 1639:404.943 - 0.425ms returns 0x1C
T7BA4 1639:404.975 JLINK_HasError()
T7BA4 1639:404.988 JLINK_ReadReg(R15 (PC))
T7BA4 1639:405.001 - 0.012ms returns 0x000000E0
T7BA4 1639:405.014 JLINK_ReadReg(XPSR)
T7BA4 1639:405.025 - 0.011ms returns 0x01000000
T7BA4 1639:413.093 JLINK_ReadMemEx(0xE0001004, 0x4 Bytes, Flags = 0x02000000)
T7BA4 1639:413.132   Data:  00 00 00 00
T7BA4 1639:413.149   Debug reg: DWT_CYCCNT
T7BA4 1639:413.166 - 0.073ms returns 4 (0x4)
T7BA4 1639:482.144 JLINK_HasError()
T7BA4 1639:482.394 JLINK_SetResetType(JLINKARM_CM3_RESET_TYPE_NORMAL)
T7BA4 1639:482.453 - 0.058ms returns JLINKARM_CM3_RESET_TYPE_NORMAL
T7BA4 1639:482.497 JLINK_Reset()
T7BA4 1639:482.520   CPU_WriteMem(4 bytes @ 0xE000EDF0)
T7BA4 1639:483.094   CPU_WriteMem(4 bytes @ 0xE000EDFC)
T7BA4 1639:483.767   Reset: Halt core after reset via DEMCR.VC_CORERESET.
T7BA4 1639:484.529   Reset: Reset device via AIRCR.SYSRESETREQ.
T7BA4 1639:484.577   CPU_WriteMem(4 bytes @ 0xE000ED0C)
T7BA4 1639:538.725   CPU_ReadMem(4 bytes @ 0xE000EDF0)
T7BA4 1639:539.524   CPU_ReadMem(4 bytes @ 0xE000EDF0)
T7BA4 1639:539.992   CPU_WriteMem(4 bytes @ 0xE000EDFC)
T7BA4 1639:545.802   CPU_ReadMem(4 bytes @ 0xE000EDF0)
T7BA4 1639:547.925   CPU_WriteMem(4 bytes @ 0xE0002000)
T7BA4 1639:548.230   CPU_ReadMem(4 bytes @ 0xE000EDFC)
T7BA4 1639:548.570   CPU_ReadMem(4 bytes @ 0xE0001000)
T7BA4 1639:548.879 - 66.382ms
T7BA4 1639:549.020 JLINK_HasError()
T7BA4 1639:549.207 JLINK_ReadReg(R15 (PC))
T7BA4 1639:549.268 - 0.060ms returns 0x000000E0
T7BA4 1639:549.290 JLINK_ReadReg(XPSR)
T7BA4 1639:549.309 - 0.019ms returns 0x01000000
T7BA4 1639:549.445 JLINK_HasError()
T7BA4 1639:549.470 JLINK_ReadReg(R0)
T7BA4 1639:549.519 - 0.049ms returns 0x00000000
T7BA4 1639:549.582 JLINK_ReadReg(R1)
T7BA4 1639:549.642 - 0.059ms returns 0x10000000
T7BA4 1639:549.740 JLINK_ReadReg(R2)
T7BA4 1639:549.755 - 0.015ms returns 0x0000157C
T7BA4 1639:549.770 JLINK_ReadReg(R3)
T7BA4 1639:549.784 - 0.013ms returns 0x04C11DB7
T7BA4 1639:549.798 JLINK_ReadReg(R4)
T7BA4 1639:549.811 - 0.013ms returns 0x00000000
T7BA4 1639:549.826 JLINK_HasError()
T7BA4 1639:549.841 JLINK_ReadMemU32(0xE0001004, 0x1 Items)
T7BA4 1639:549.860   Data:  00 00 00 00
T7BA4 1639:549.880   Debug reg: DWT_CYCCNT
T7BA4 1639:549.905 - 0.064ms returns 1 (0x1)
T7BA4 1639:550.368 JLINK_ReadMemEx(0x000000E0, 0x3C Bytes, Flags = 0x02000000)
T7BA4 1639:550.394   CPU_ReadMem(60 bytes @ 0x000000E0)
T7BA4 1639:550.819   Data:  00 00 00 00 00 00 00 00 00 00 00 00 00 00 00 00 ...
T7BA4 1639:550.841 - 0.473ms returns 60 (0x3C)
T7BA4 1639:550.856 JLINK_ReadMemEx(0x000000E0, 0x2 Bytes, Flags = 0x02000000)
T7BA4 1639:550.871   CPU_ReadMem(2 bytes @ 0x000000E0)
T7BA4 1639:551.105   Data:  00 00
T7BA4 1639:551.125 - 0.269ms returns 2 (0x2)
T7BA4 1639:551.152 JLINK_ReadMemEx(0x000000E2, 0x2 Bytes, Flags = 0x02000000)
T7BA4 1639:551.166   CPU_ReadMem(2 bytes @ 0x000000E2)
T7BA4 1639:551.391   Data:  00 00
T7BA4 1639:551.412 - 0.259ms returns 2 (0x2)
T7BA4 1639:551.437 JLINK_ReadMemEx(0x000000E2, 0x2 Bytes, Flags = 0x02000000)
T7BA4 1639:551.452   CPU_ReadMem(2 bytes @ 0x000000E2)
T7BA4 1639:551.661   Data:  00 00
T7BA4 1639:551.683 - 0.245ms returns 2 (0x2)
T7BA4 1639:551.697 JLINK_ReadMemEx(0x000000E4, 0x3C Bytes, Flags = 0x02000000)
T7BA4 1639:551.711   CPU_ReadMem(60 bytes @ 0x000000E4)
T7BA4 1639:552.092   Data:  00 00 00 00 00 00 00 00 00 00 00 00 00 00 00 00 ...
T7BA4 1639:552.125 - 0.427ms returns 60 (0x3C)
T7BA4 1639:552.139 JLINK_ReadMemEx(0x000000E4, 0x2 Bytes, Flags = 0x02000000)
T7BA4 1639:552.153   CPU_ReadMem(2 bytes @ 0x000000E4)
T7BA4 1639:552.386   Data:  00 00
T7BA4 1639:552.405 - 0.266ms returns 2 (0x2)
T7BA4 1639:552.425 JLINK_ReadMemEx(0x000000E4, 0x3C Bytes, Flags = 0x02000000)
T7BA4 1639:552.439   CPU_ReadMem(60 bytes @ 0x000000E4)
T7BA4 1639:552.787   Data:  00 00 00 00 00 00 00 00 00 00 00 00 00 00 00 00 ...
T7BA4 1639:552.807 - 0.381ms returns 60 (0x3C)
T7BA4 1639:552.820 JLINK_ReadMemEx(0x000000E4, 0x2 Bytes, Flags = 0x02000000)
T7BA4 1639:552.834   CPU_ReadMem(2 bytes @ 0x000000E4)
T7BA4 1639:553.046   Data:  00 00
T7BA4 1639:553.066 - 0.245ms returns 2 (0x2)
T7BA4 1639:553.080 JLINK_ReadMemEx(0x000000E6, 0x2 Bytes, Flags = 0x02000000)
T7BA4 1639:553.093   CPU_ReadMem(2 bytes @ 0x000000E6)
T7BA4 1639:553.294   Data:  00 00
T7BA4 1639:553.313 - 0.233ms returns 2 (0x2)
T7BA4 1639:553.331 JLINK_ReadMemEx(0x000000E6, 0x2 Bytes, Flags = 0x02000000)
T7BA4 1639:553.344   CPU_ReadMem(2 bytes @ 0x000000E6)
T7BA4 1639:553.544   Data:  00 00
T7BA4 1639:553.562 - 0.231ms returns 2 (0x2)
T7BA4 1639:553.576 JLINK_ReadMemEx(0x000000E8, 0x3C Bytes, Flags = 0x02000000)
T7BA4 1639:553.589   CPU_ReadMem(60 bytes @ 0x000000E8)
T7BA4 1639:553.965   Data:  00 00 00 00 00 00 00 00 00 00 00 00 00 00 00 00 ...
T7BA4 1639:553.984 - 0.407ms returns 60 (0x3C)
T7BA4 1639:553.997 JLINK_ReadMemEx(0x000000E8, 0x2 Bytes, Flags = 0x02000000)
T7BA4 1639:554.010   CPU_ReadMem(2 bytes @ 0x000000E8)
T7BA4 1639:554.241   Data:  00 00
T7BA4 1639:554.260 - 0.262ms returns 2 (0x2)
T7BA4 1639:554.277 JLINK_ReadMemEx(0x000000E8, 0x3C Bytes, Flags = 0x02000000)
T7BA4 1639:554.291   CPU_ReadMem(60 bytes @ 0x000000E8)
T7BA4 1639:554.720   Data:  00 00 00 00 00 00 00 00 00 00 00 00 00 00 00 00 ...
T7BA4 1639:554.740 - 0.463ms returns 60 (0x3C)
T7BA4 1639:554.754 JLINK_ReadMemEx(0x000000E8, 0x2 Bytes, Flags = 0x02000000)
T7BA4 1639:554.769   CPU_ReadMem(2 bytes @ 0x000000E8)
T7BA4 1639:555.012   Data:  00 00
T7BA4 1639:555.031 - 0.276ms returns 2 (0x2)
T7BA4 1639:555.045 JLINK_ReadMemEx(0x000000EA, 0x2 Bytes, Flags = 0x02000000)
T7BA4 1639:555.059   CPU_ReadMem(2 bytes @ 0x000000EA)
T7BA4 1639:555.268   Data:  00 00
T7BA4 1639:555.287 - 0.242ms returns 2 (0x2)
T0C10 1641:558.227 JLINK_ReadMemEx(0x000000E0, 0x2 Bytes, Flags = 0x02000000)
T0C10 1641:558.548   CPU_ReadMem(2 bytes @ 0x000000E0)
T0C10 1641:559.085   Data:  00 00
T0C10 1641:559.140 - 0.916ms returns 2 (0x2)
T0C10 1641:559.161 JLINK_HasError()
T0C10 1641:559.189 JLINK_SetBPEx(Addr = 0x10001260, Type = 0xFFFFFFF2)
T0C10 1641:559.211 - 0.021ms returns 0x00000001
T0C10 1641:559.228 JLINK_HasError()
T0C10 1641:559.246 JLINK_HasError()
T0C10 1641:559.265 JLINK_Go()
T0C10 1641:559.681   CPU_WriteMem(4 bytes @ 0xE0002000)
T0C10 1641:560.090   CPU_ReadMem(4 bytes @ 0xE0001000)
T0C10 1641:560.423   CPU_WriteMem(4 bytes @ 0xE0002008)
T0C10 1641:560.451   CPU_WriteMem(4 bytes @ 0xE000200C)
T0C10 1641:560.475   CPU_WriteMem(4 bytes @ 0xE0002010)
T0C10 1641:560.500   CPU_WriteMem(4 bytes @ 0xE0002014)
T0C10 1641:560.524   CPU_WriteMem(4 bytes @ 0xE0002018)
T0C10 1641:560.548   CPU_WriteMem(4 bytes @ 0xE000201C)
T0C10 1641:561.246   CPU_WriteMem(4 bytes @ 0xE0001004)
T0C10 1641:562.244   Memory map 'after startup completion point' is active
T0C10 1641:562.307 - 3.041ms
T0C10 1641:663.200 JLINK_HasError()
T0C10 1641:663.507 JLINK_IsHalted()
T0C10 1641:665.270 - 1.762ms returns TRUE
T0C10 1641:665.303 JLINK_HasError()
T0C10 1641:665.320 JLINK_Halt()
T0C10 1641:665.336 - 0.015ms returns 0x00
T0C10 1641:665.359 JLINK_IsHalted()
T0C10 1641:665.372 - 0.013ms returns TRUE
T0C10 1641:665.387 JLINK_IsHalted()
T0C10 1641:665.401 - 0.013ms returns TRUE
T0C10 1641:665.415 JLINK_IsHalted()
T0C10 1641:665.429 - 0.013ms returns TRUE
T0C10 1641:665.444 JLINK_HasError()
T0C10 1641:665.460 JLINK_ReadReg(R15 (PC))
T0C10 1641:665.477 - 0.017ms returns 0x10001260
T0C10 1641:665.492 JLINK_ReadReg(XPSR)
T0C10 1641:665.506 - 0.014ms returns 0x61000000
T0C10 1641:665.524 JLINK_HasError()
T0C10 1641:665.542 JLINK_ClrBPEx(BPHandle = 0x00000001)
T0C10 1641:665.557 - 0.014ms returns 0x00
T0C10 1641:665.571 JLINK_HasError()
T0C10 1641:665.586 JLINK_HasError()
T0C10 1641:665.601 JLINK_ReadMemU32(0xE000ED30, 0x1 Items)
T0C10 1641:665.621   CPU_ReadMem(4 bytes @ 0xE000ED30)
T0C10 1641:665.868   Data:  02 00 00 00
T0C10 1641:665.893 - 0.292ms returns 1 (0x1)
T0C10 1641:665.909 JLINK_ReadMemU32(0xE0001028, 0x1 Items)
T0C10 1641:665.925   CPU_ReadMem(4 bytes @ 0xE0001028)
T0C10 1641:666.158   Data:  00 00 00 00
T0C10 1641:666.181   Debug reg: DWT_FUNC[0]
T0C10 1641:666.201 - 0.292ms returns 1 (0x1)
T0C10 1641:666.216 JLINK_ReadMemU32(0xE0001038, 0x1 Items)
T0C10 1641:666.232   CPU_ReadMem(4 bytes @ 0xE0001038)
T0C10 1641:666.551   Data:  00 02 00 00
T0C10 1641:666.634   Debug reg: DWT_FUNC[1]
T0C10 1641:666.667 - 0.450ms returns 1 (0x1)
T0C10 1641:666.686 JLINK_ReadMemU32(0xE0001048, 0x1 Items)
T0C10 1641:666.706   CPU_ReadMem(4 bytes @ 0xE0001048)
T0C10 1641:666.963   Data:  00 00 00 00
T0C10 1641:667.055   Debug reg: DWT_FUNC[2]
T0C10 1641:667.093 - 0.405ms returns 1 (0x1)
T0C10 1641:667.124 JLINK_ReadMemU32(0xE0001058, 0x1 Items)
T0C10 1641:667.161   CPU_ReadMem(4 bytes @ 0xE0001058)
T0C10 1641:667.441   Data:  00 00 00 00
T0C10 1641:667.469   Debug reg: DWT_FUNC[3]
T0C10 1641:667.493 - 0.369ms returns 1 (0x1)
T0C10 1641:667.566 JLINK_HasError()
T0C10 1641:667.585 JLINK_ReadReg(R0)
T0C10 1641:667.605 - 0.019ms returns 0x1FFFCD90
T0C10 1641:667.622 JLINK_ReadReg(R1)
T0C10 1641:667.639 - 0.016ms returns 0x1FFFD190
T0C10 1641:667.656 JLINK_ReadReg(R2)
T0C10 1641:667.673 - 0.016ms returns 0x1FFFD190
T0C10 1641:667.690 JLINK_ReadReg(R3)
T0C10 1641:667.711 - 0.020ms returns 0x1FFFD190
T0C10 1641:667.732 JLINK_ReadReg(R4)
T0C10 1641:667.748 - 0.016ms returns 0x00000000
T0C10 1641:667.766 JLINK_ReadReg(R5)
T0C10 1641:667.782 - 0.016ms returns 0x1FFFCD30
T0C10 1641:667.799 JLINK_ReadReg(R6)
T0C10 1641:667.816 - 0.016ms returns 0x00000000
T0C10 1641:667.833 JLINK_ReadReg(R7)
T0C10 1641:667.849 - 0.016ms returns 0x00000000
T0C10 1641:667.867 JLINK_ReadReg(R8)
T0C10 1641:667.884 - 0.017ms returns 0x00000000
T0C10 1641:667.901 JLINK_ReadReg(R9)
T0C10 1641:667.918 - 0.016ms returns 0x40000F50
T0C10 1641:667.935 JLINK_ReadReg(R10)
T0C10 1641:667.955 - 0.020ms returns 0x10001544
T0C10 1641:667.978 JLINK_ReadReg(R11)
T0C10 1641:667.998 - 0.019ms returns 0x00000000
T0C10 1641:668.030 JLINK_ReadReg(R12)
T0C10 1641:668.064 - 0.033ms returns 0x1FFFCD70
T0C10 1641:668.091 JLINK_ReadReg(R13 (SP))
T0C10 1641:668.121 - 0.029ms returns 0x1FFFD590
T0C10 1641:668.148 JLINK_ReadReg(R14)
T0C10 1641:668.176 - 0.027ms returns 0x100001BB
T0C10 1641:668.202 JLINK_ReadReg(R15 (PC))
T0C10 1641:668.222 - 0.020ms returns 0x10001260
T0C10 1641:668.243 JLINK_ReadReg(XPSR)
T0C10 1641:668.262 - 0.019ms returns 0x61000000
T0C10 1641:668.283 JLINK_ReadReg(MSP)
T0C10 1641:668.303 - 0.019ms returns 0x1FFFD590
T0C10 1641:668.323 JLINK_ReadReg(PSP)
T0C10 1641:668.343 - 0.019ms returns 0x1FFFE000
T0C10 1641:668.364 JLINK_ReadReg(CFBP)
T0C10 1641:668.383 - 0.019ms returns 0x04000000
T0C10 1641:668.404 JLINK_ReadReg(FPSCR)
T0C10 1641:670.735 - 2.330ms returns 0x03000000
T0C10 1641:670.767 JLINK_ReadReg(FPS0)
T0C10 1641:670.785 - 0.017ms returns 0xE84FF817
T0C10 1641:670.801 JLINK_ReadReg(FPS1)
T0C10 1641:670.817 - 0.015ms returns 0xFD4CE975
T0C10 1641:670.833 JLINK_ReadReg(FPS2)
T0C10 1641:670.849 - 0.015ms returns 0xE8D1BB57
T0C10 1641:670.865 JLINK_ReadReg(FPS3)
T0C10 1641:670.881 - 0.015ms returns 0x5C41BF56
T0C10 1641:670.897 JLINK_ReadReg(FPS4)
T0C10 1641:670.913 - 0.015ms returns 0x5BC9A4DC
T0C10 1641:670.929 JLINK_ReadReg(FPS5)
T0C10 1641:670.945 - 0.015ms returns 0xB7BC6DAB
T0C10 1641:670.963 JLINK_ReadReg(FPS6)
T0C10 1641:670.979 - 0.015ms returns 0xE381D187
T0C10 1641:670.995 JLINK_ReadReg(FPS7)
T0C10 1641:671.011 - 0.015ms returns 0x3681EAA5
T0C10 1641:671.027 JLINK_ReadReg(FPS8)
T0C10 1641:671.043 - 0.015ms returns 0x6DCC353D
T0C10 1641:671.059 JLINK_ReadReg(FPS9)
T0C10 1641:671.074 - 0.015ms returns 0xF103B62E
T0C10 1641:671.091 JLINK_ReadReg(FPS10)
T0C10 1641:671.106 - 0.015ms returns 0x7341C8B6
T0C10 1641:671.122 JLINK_ReadReg(FPS11)
T0C10 1641:671.138 - 0.015ms returns 0xD4DBD9E5
T0C10 1641:671.155 JLINK_ReadReg(FPS12)
T0C10 1641:671.171 - 0.015ms returns 0x099D4EB1
T0C10 1641:671.187 JLINK_ReadReg(FPS13)
T0C10 1641:671.202 - 0.015ms returns 0x7370F8EF
T0C10 1641:671.219 JLINK_ReadReg(FPS14)
T0C10 1641:671.234 - 0.015ms returns 0xDF5F4EDC
T0C10 1641:671.250 JLINK_ReadReg(FPS15)
T0C10 1641:671.266 - 0.015ms returns 0xFBC1F9B8
T0C10 1641:671.283 JLINK_ReadReg(FPS16)
T0C10 1641:671.298 - 0.015ms returns 0x5B74D2DF
T0C10 1641:671.315 JLINK_ReadReg(FPS17)
T0C10 1641:671.330 - 0.015ms returns 0xE3C97CF8
T0C10 1641:671.346 JLINK_ReadReg(FPS18)
T0C10 1641:671.362 - 0.015ms returns 0xDCEDF06D
T0C10 1641:671.378 JLINK_ReadReg(FPS19)
T0C10 1641:671.393 - 0.015ms returns 0xE8D6FDF2
T0C10 1641:671.410 JLINK_ReadReg(FPS20)
T0C10 1641:671.425 - 0.015ms returns 0x9B321B1B
T0C10 1641:671.442 JLINK_ReadReg(FPS21)
T0C10 1641:671.457 - 0.015ms returns 0x2D9F77BC
T0C10 1641:671.473 JLINK_ReadReg(FPS22)
T0C10 1641:671.489 - 0.015ms returns 0x9733D659
T0C10 1641:671.505 JLINK_ReadReg(FPS23)
T0C10 1641:671.521 - 0.015ms returns 0x6B441B5D
T0C10 1641:671.538 JLINK_ReadReg(FPS24)
T0C10 1641:671.553 - 0.016ms returns 0xB6F5CFDE
T0C10 1641:671.569 JLINK_ReadReg(FPS25)
T0C10 1641:671.585 - 0.015ms returns 0xFCF6C656
T0C10 1641:671.601 JLINK_ReadReg(FPS26)
T0C10 1641:671.617 - 0.015ms returns 0xD6087D1F
T0C10 1641:671.633 JLINK_ReadReg(FPS27)
T0C10 1641:671.648 - 0.015ms returns 0xB1D574A3
T0C10 1641:671.664 JLINK_ReadReg(FPS28)
T0C10 1641:671.684 - 0.018ms returns 0x41997FE1
T0C10 1641:671.707 JLINK_ReadReg(FPS29)
T0C10 1641:671.719 - 0.012ms returns 0xC240F337
T0C10 1641:671.732 JLINK_ReadReg(FPS30)
T0C10 1641:671.745 - 0.012ms returns 0xBFE7EF7B
T0C10 1641:671.758 JLINK_ReadReg(FPS31)
T0C10 1641:671.770 - 0.012ms returns 0x5B71BBD7
T7BA4 1641:680.452 JLINK_HasError()
T7BA4 1641:680.491 JLINK_ReadMemU32(0xE0001004, 0x1 Items)
T7BA4 1641:680.508   CPU_ReadMem(4 bytes @ 0xE0001004)
T7BA4 1641:680.792   Data:  86 41 00 00
T7BA4 1641:680.813   Debug reg: DWT_CYCCNT
T7BA4 1641:680.830 - 0.338ms returns 1 (0x1)
T7BA4 1641:688.301 JLINK_ReadMemEx(0x10001260, 0x3C Bytes, Flags = 0x02000000)
T7BA4 1641:688.391   CPU_ReadMem(128 bytes @ 0x10001240)
T7BA4 1641:689.239    -- Updating DA cache (128 bytes @ 0x10001240)
T7BA4 1641:689.300    -- Read from DA cache (60 bytes @ 0x10001260)
T7BA4 1641:689.326   Data:  10 B5 5F 48 FF F7 76 FE FF F7 F0 FE 5D 48 00 68 ...
T7BA4 1641:689.350 - 1.051ms returns 60 (0x3C)
T7BA4 1641:689.376 JLINK_ReadMemEx(0x10001260, 0x2 Bytes, Flags = 0x02000000)
T7BA4 1641:689.400    -- Read from DA cache (2 bytes @ 0x10001260)
T7BA4 1641:689.424   Data:  10 B5
T7BA4 1641:689.449 - 0.073ms returns 2 (0x2)
T7BA4 1641:689.537 JLINK_ReadMemEx(0x10001262, 0x2 Bytes, Flags = 0x02000000)
T7BA4 1641:689.556    -- Read from DA cache (2 bytes @ 0x10001262)
T7BA4 1641:689.580   Data:  5F 48
T7BA4 1641:689.604 - 0.067ms returns 2 (0x2)
T0C10 1643:746.402 JLINK_ReadMemEx(0x10001260, 0x2 Bytes, Flags = 0x02000000)
T0C10 1643:746.630    -- Read from DA cache (2 bytes @ 0x10001260)
T0C10 1643:746.737   Data:  10 B5
T0C10 1643:746.838 - 0.438ms returns 2 (0x2)
T0C10 1643:746.856 JLINK_HasError()
T0C10 1643:746.888 JLINK_Step()
T0C10 1643:747.809    -- Read from DA cache (2 bytes @ 0x10001260)
T0C10 1643:747.955   CPU_ReadMem(4 bytes @ 0xE000ED18)
T0C10 1643:748.518   CPU_WriteMem(4 bytes @ 0xE000ED18)
T0C10 1643:749.064   CPU_ReadMem(4 bytes @ 0xE000ED18)
T0C10 1643:749.562   CPU_WriteMem(4 bytes @ 0xE000ED18)
T0C10 1643:750.758   -- Not simulated
T0C10 1643:750.887   CPU_WriteMem(4 bytes @ 0xE0002008)
T0C10 1643:753.926 - 7.035ms returns 0
T0C10 1643:754.184 JLINK_HasError()
T0C10 1643:754.277 JLINK_ReadReg(R15 (PC))
T0C10 1643:754.361 - 0.083ms returns 0x10001262
T0C10 1643:754.452 JLINK_ReadReg(XPSR)
T0C10 1643:754.505 - 0.054ms returns 0x61000000
T0C10 1643:754.608 JLINK_HasError()
T0C10 1643:754.647 JLINK_ReadReg(R0)
T0C10 1643:754.668 - 0.020ms returns 0x1FFFCD90
T0C10 1643:754.767 JLINK_ReadReg(R1)
T0C10 1643:754.826 - 0.059ms returns 0x1FFFD190
T0C10 1643:754.847 JLINK_ReadReg(R2)
T0C10 1643:754.868 - 0.020ms returns 0x1FFFD190
T0C10 1643:754.886 JLINK_ReadReg(R3)
T0C10 1643:754.904 - 0.017ms returns 0x1FFFD190
T0C10 1643:754.922 JLINK_ReadReg(R4)
T0C10 1643:754.943 - 0.021ms returns 0x00000000
T0C10 1643:754.962 JLINK_ReadReg(R5)
T0C10 1643:754.979 - 0.017ms returns 0x1FFFCD30
T0C10 1643:755.001 JLINK_ReadReg(R6)
T0C10 1643:755.018 - 0.017ms returns 0x00000000
T0C10 1643:755.036 JLINK_ReadReg(R7)
T0C10 1643:755.054 - 0.017ms returns 0x00000000
T0C10 1643:755.073 JLINK_ReadReg(R8)
T0C10 1643:755.091 - 0.017ms returns 0x00000000
T0C10 1643:755.115 JLINK_ReadReg(R9)
T0C10 1643:755.135 - 0.019ms returns 0x40000F50
T0C10 1643:755.155 JLINK_ReadReg(R10)
T0C10 1643:755.175 - 0.019ms returns 0x10001544
T0C10 1643:755.198 JLINK_ReadReg(R11)
T0C10 1643:755.217 - 0.019ms returns 0x00000000
T0C10 1643:755.238 JLINK_ReadReg(R12)
T0C10 1643:755.258 - 0.019ms returns 0x1FFFCD70
T0C10 1643:755.278 JLINK_ReadReg(R13 (SP))
T0C10 1643:755.298 - 0.019ms returns 0x1FFFD588
T0C10 1643:755.319 JLINK_ReadReg(R14)
T0C10 1643:755.339 - 0.019ms returns 0x100001BB
T0C10 1643:755.359 JLINK_ReadReg(R15 (PC))
T0C10 1643:755.382 - 0.022ms returns 0x10001262
T0C10 1643:755.403 JLINK_ReadReg(XPSR)
T0C10 1643:755.423 - 0.019ms returns 0x61000000
T0C10 1643:755.447 JLINK_ReadReg(MSP)
T0C10 1643:755.467 - 0.019ms returns 0x1FFFD588
T0C10 1643:755.487 JLINK_ReadReg(PSP)
T0C10 1643:755.507 - 0.019ms returns 0x1FFFE000
T0C10 1643:755.536 JLINK_ReadReg(CFBP)
T0C10 1643:755.556 - 0.020ms returns 0x04000000
T0C10 1643:755.577 JLINK_ReadReg(FPSCR)
T0C10 1643:758.192 - 2.613ms returns 0x03000000
T0C10 1643:758.276 JLINK_ReadReg(FPS0)
T0C10 1643:758.316 - 0.039ms returns 0xE84FF817
T0C10 1643:758.351 JLINK_ReadReg(FPS1)
T0C10 1643:758.385 - 0.033ms returns 0xFD4CE975
T0C10 1643:758.419 JLINK_ReadReg(FPS2)
T0C10 1643:758.453 - 0.033ms returns 0xE8D1BB57
T0C10 1643:758.488 JLINK_ReadReg(FPS3)
T0C10 1643:758.521 - 0.033ms returns 0x5C41BF56
T0C10 1643:758.556 JLINK_ReadReg(FPS4)
T0C10 1643:758.589 - 0.033ms returns 0x5BC9A4DC
T0C10 1643:758.628 JLINK_ReadReg(FPS5)
T0C10 1643:758.662 - 0.033ms returns 0xB7BC6DAB
T0C10 1643:758.696 JLINK_ReadReg(FPS6)
T0C10 1643:758.730 - 0.032ms returns 0xE381D187
T0C10 1643:758.767 JLINK_ReadReg(FPS7)
T0C10 1643:758.801 - 0.033ms returns 0x3681EAA5
T0C10 1643:758.835 JLINK_ReadReg(FPS8)
T0C10 1643:758.872 - 0.036ms returns 0x6DCC353D
T0C10 1643:758.907 JLINK_ReadReg(FPS9)
T0C10 1643:758.941 - 0.034ms returns 0xF103B62E
T0C10 1643:758.970 JLINK_ReadReg(FPS10)
T0C10 1643:758.997 - 0.026ms returns 0x7341C8B6
T0C10 1643:759.028 JLINK_ReadReg(FPS11)
T0C10 1643:759.055 - 0.027ms returns 0xD4DBD9E5
T0C10 1643:759.083 JLINK_ReadReg(FPS12)
T0C10 1643:759.114 - 0.030ms returns 0x099D4EB1
T0C10 1643:759.142 JLINK_ReadReg(FPS13)
T0C10 1643:759.169 - 0.026ms returns 0x7370F8EF
T0C10 1643:759.197 JLINK_ReadReg(FPS14)
T0C10 1643:759.224 - 0.026ms returns 0xDF5F4EDC
T0C10 1643:759.252 JLINK_ReadReg(FPS15)
T0C10 1643:759.279 - 0.027ms returns 0xFBC1F9B8
T0C10 1643:759.308 JLINK_ReadReg(FPS16)
T0C10 1643:759.335 - 0.027ms returns 0x5B74D2DF
T0C10 1643:759.363 JLINK_ReadReg(FPS17)
T0C10 1643:759.390 - 0.026ms returns 0xE3C97CF8
T0C10 1643:759.419 JLINK_ReadReg(FPS18)
T0C10 1643:759.446 - 0.026ms returns 0xDCEDF06D
T0C10 1643:759.474 JLINK_ReadReg(FPS19)
T0C10 1643:759.501 - 0.026ms returns 0xE8D6FDF2
T0C10 1643:759.529 JLINK_ReadReg(FPS20)
T0C10 1643:759.556 - 0.026ms returns 0x9B321B1B
T0C10 1643:759.585 JLINK_ReadReg(FPS21)
T0C10 1643:759.612 - 0.026ms returns 0x2D9F77BC
T0C10 1643:759.640 JLINK_ReadReg(FPS22)
T0C10 1643:759.667 - 0.026ms returns 0x9733D659
T0C10 1643:759.695 JLINK_ReadReg(FPS23)
T0C10 1643:759.717 - 0.021ms returns 0x6B441B5D
T0C10 1643:759.735 JLINK_ReadReg(FPS24)
T0C10 1643:759.753 - 0.017ms returns 0xB6F5CFDE
T0C10 1643:759.771 JLINK_ReadReg(FPS25)
T0C10 1643:759.788 - 0.017ms returns 0xFCF6C656
T0C10 1643:759.806 JLINK_ReadReg(FPS26)
T0C10 1643:759.823 - 0.017ms returns 0xD6087D1F
T0C10 1643:759.842 JLINK_ReadReg(FPS27)
T0C10 1643:759.859 - 0.017ms returns 0xB1D574A3
T0C10 1643:759.877 JLINK_ReadReg(FPS28)
T0C10 1643:759.894 - 0.017ms returns 0x41997FE1
T0C10 1643:759.913 JLINK_ReadReg(FPS29)
T0C10 1643:759.930 - 0.017ms returns 0xC240F337
T0C10 1643:759.948 JLINK_ReadReg(FPS30)
T0C10 1643:759.965 - 0.017ms returns 0xBFE7EF7B
T0C10 1643:759.983 JLINK_ReadReg(FPS31)
T0C10 1643:760.001 - 0.017ms returns 0x5B71BBD7
T7BA4 1643:762.389 JLINK_ReadMemEx(0x1FFFD58C, 0x4 Bytes, Flags = 0x02000000)
T7BA4 1643:762.473   CPU_ReadMem(4 bytes @ 0x1FFFD58C)
T7BA4 1643:762.790   Data:  BB 01 00 10
T7BA4 1643:762.810 - 0.420ms returns 4 (0x4)
T7BA4 1643:762.879 JLINK_HasError()
T7BA4 1643:762.893 JLINK_ReadMemU32(0xE0001004, 0x1 Items)
T7BA4 1643:762.907   CPU_ReadMem(4 bytes @ 0xE0001004)
T7BA4 1643:763.184   Data:  8A 41 00 00
T7BA4 1643:763.202   Debug reg: DWT_CYCCNT
T7BA4 1643:763.217 - 0.324ms returns 1 (0x1)
T7BA4 1643:768.493 JLINK_ReadMemEx(0x10001262, 0x2 Bytes, Flags = 0x02000000)
T7BA4 1643:768.563   CPU_ReadMem(64 bytes @ 0x10001240)
T7BA4 1643:769.132    -- Updating DA cache (64 bytes @ 0x10001240)
T7BA4 1643:769.206    -- Read from DA cache (2 bytes @ 0x10001262)
T7BA4 1643:769.240   Data:  5F 48
T7BA4 1643:769.274 - 0.781ms returns 2 (0x2)
T7BA4 1643:769.303 JLINK_ReadMemEx(0x10001264, 0x3C Bytes, Flags = 0x02000000)
T7BA4 1643:769.331   CPU_ReadMem(64 bytes @ 0x10001280)
T7BA4 1643:769.897    -- Updating DA cache (64 bytes @ 0x10001280)
T7BA4 1643:770.007    -- Read from DA cache (60 bytes @ 0x10001264)
T7BA4 1643:770.027   Data:  FF F7 76 FE FF F7 F0 FE 5D 48 00 68 40 F2 03 11 ...
T7BA4 1643:770.046 - 0.743ms returns 60 (0x3C)
T7BA4 1643:770.061 JLINK_ReadMemEx(0x10001264, 0x2 Bytes, Flags = 0x02000000)
T7BA4 1643:770.077    -- Read from DA cache (2 bytes @ 0x10001264)
T7BA4 1643:770.096   Data:  FF F7
T7BA4 1643:770.115 - 0.053ms returns 2 (0x2)
T7BA4 1643:770.142 JLINK_ReadMemEx(0x10001264, 0x3C Bytes, Flags = 0x02000000)
T7BA4 1643:770.156    -- Read from DA cache (60 bytes @ 0x10001264)
T7BA4 1643:770.176   Data:  FF F7 76 FE FF F7 F0 FE 5D 48 00 68 40 F2 03 11 ...
T7BA4 1643:770.195 - 0.052ms returns 60 (0x3C)
T7BA4 1643:770.209 JLINK_ReadMemEx(0x10001264, 0x2 Bytes, Flags = 0x02000000)
T7BA4 1643:770.222    -- Read from DA cache (2 bytes @ 0x10001264)
T7BA4 1643:770.241   Data:  FF F7
T7BA4 1643:770.260 - 0.051ms returns 2 (0x2)
T7BA4 1643:770.274 JLINK_ReadMemEx(0x10001266, 0x2 Bytes, Flags = 0x02000000)
T7BA4 1643:770.288    -- Read from DA cache (2 bytes @ 0x10001266)
T7BA4 1643:770.307   Data:  76 FE
T7BA4 1643:770.326 - 0.051ms returns 2 (0x2)
T0C10 1644:384.630 JLINK_ReadMemEx(0x10001262, 0x2 Bytes, Flags = 0x02000000)
T0C10 1644:384.729    -- Read from DA cache (2 bytes @ 0x10001262)
T0C10 1644:384.769   Data:  5F 48
T0C10 1644:384.808 - 0.178ms returns 2 (0x2)
T0C10 1644:384.836 JLINK_HasError()
T0C10 1644:384.866 JLINK_Step()
T0C10 1644:385.492    -- Read from DA cache (2 bytes @ 0x10001262)
T0C10 1644:385.567   -- Not simulated
T0C10 1644:388.485 - 3.618ms returns 0
T0C10 1644:388.559 JLINK_HasError()
T0C10 1644:388.590 JLINK_ReadReg(R15 (PC))
T0C10 1644:388.615 - 0.026ms returns 0x10001264
T0C10 1644:388.639 JLINK_ReadReg(XPSR)
T0C10 1644:388.661 - 0.022ms returns 0x61000000
T0C10 1644:388.695 JLINK_HasError()
T0C10 1644:388.722 JLINK_SetBPEx(Addr = 0x10001268, Type = 0xFFFFFFF2)
T0C10 1644:388.747 - 0.025ms returns 0x00000002
T0C10 1644:388.769 JLINK_HasError()
T0C10 1644:388.937 JLINK_HasError()
T0C10 1644:388.995 JLINK_Go()
T0C10 1644:389.026   CPU_WriteMem(4 bytes @ 0xE0002000)
T0C10 1644:389.518   CPU_ReadMem(4 bytes @ 0xE0001000)
T0C10 1644:390.026   CPU_WriteMem(4 bytes @ 0xE0002008)
T0C10 1644:391.002 - 2.006ms
T0C10 1644:491.807 JLINK_HasError()
T0C10 1644:491.925 JLINK_IsHalted()
T0C10 1644:493.706 - 1.780ms returns TRUE
T0C10 1644:493.745 JLINK_HasError()
T0C10 1644:493.764 JLINK_Halt()
T0C10 1644:493.782 - 0.018ms returns 0x00
T0C10 1644:493.801 JLINK_IsHalted()
T0C10 1644:493.819 - 0.018ms returns TRUE
T0C10 1644:493.837 JLINK_IsHalted()
T0C10 1644:493.853 - 0.016ms returns TRUE
T0C10 1644:493.882 JLINK_IsHalted()
T0C10 1644:493.934 - 0.052ms returns TRUE
T0C10 1644:493.993 JLINK_HasError()
T0C10 1644:494.052 JLINK_ReadReg(R15 (PC))
T0C10 1644:494.113 - 0.061ms returns 0x10001268
T0C10 1644:494.159 JLINK_ReadReg(XPSR)
T0C10 1644:494.174 - 0.015ms returns 0x61000000
T0C10 1644:494.193 JLINK_HasError()
T0C10 1644:494.209 JLINK_ClrBPEx(BPHandle = 0x00000002)
T0C10 1644:494.225 - 0.015ms returns 0x00
T0C10 1644:494.240 JLINK_HasError()
T0C10 1644:494.256 JLINK_HasError()
T0C10 1644:494.272 JLINK_ReadMemU32(0xE000ED30, 0x1 Items)
T0C10 1644:494.294   CPU_ReadMem(4 bytes @ 0xE000ED30)
T0C10 1644:494.743   Data:  02 00 00 00
T0C10 1644:494.783 - 0.512ms returns 1 (0x1)
T0C10 1644:494.799 JLINK_ReadMemU32(0xE0001028, 0x1 Items)
T0C10 1644:494.814   CPU_ReadMem(4 bytes @ 0xE0001028)
T0C10 1644:495.224   Data:  00 00 00 00
T0C10 1644:495.255   Debug reg: DWT_FUNC[0]
T0C10 1644:495.275 - 0.476ms returns 1 (0x1)
T0C10 1644:495.291 JLINK_ReadMemU32(0xE0001038, 0x1 Items)
T0C10 1644:495.306   CPU_ReadMem(4 bytes @ 0xE0001038)
T0C10 1644:495.679   Data:  00 02 00 00
T0C10 1644:495.731   Debug reg: DWT_FUNC[1]
T0C10 1644:495.755 - 0.464ms returns 1 (0x1)
T0C10 1644:495.775 JLINK_ReadMemU32(0xE0001048, 0x1 Items)
T0C10 1644:495.797   CPU_ReadMem(4 bytes @ 0xE0001048)
T0C10 1644:496.127   Data:  00 00 00 00
T0C10 1644:496.160   Debug reg: DWT_FUNC[2]
T0C10 1644:496.185 - 0.410ms returns 1 (0x1)
T0C10 1644:496.201 JLINK_ReadMemU32(0xE0001058, 0x1 Items)
T0C10 1644:496.218   CPU_ReadMem(4 bytes @ 0xE0001058)
T0C10 1644:496.544   Data:  00 00 00 00
T0C10 1644:496.564   Debug reg: DWT_FUNC[3]
T0C10 1644:496.582 - 0.380ms returns 1 (0x1)
T0C10 1644:496.642 JLINK_HasError()
T0C10 1644:496.657 JLINK_ReadReg(R0)
T0C10 1644:496.671 - 0.013ms returns 0x00000000
T0C10 1644:496.684 JLINK_ReadReg(R1)
T0C10 1644:496.696 - 0.012ms returns 0x18030C01
T0C10 1644:496.709 JLINK_ReadReg(R2)
T0C10 1644:496.721 - 0.012ms returns 0x0306020C
T0C10 1644:496.734 JLINK_ReadReg(R3)
T0C10 1644:496.746 - 0.012ms returns 0x40001B40
T0C10 1644:496.759 JLINK_ReadReg(R4)
T0C10 1644:496.772 - 0.012ms returns 0x00000000
T0C10 1644:496.784 JLINK_ReadReg(R5)
T0C10 1644:496.797 - 0.012ms returns 0x1FFFCD30
T0C10 1644:496.810 JLINK_ReadReg(R6)
T0C10 1644:496.822 - 0.012ms returns 0x00000000
T0C10 1644:496.835 JLINK_ReadReg(R7)
T0C10 1644:496.847 - 0.012ms returns 0x00000000
T0C10 1644:496.860 JLINK_ReadReg(R8)
T0C10 1644:496.872 - 0.012ms returns 0x00000000
T0C10 1644:496.888 JLINK_ReadReg(R9)
T0C10 1644:496.901 - 0.012ms returns 0x40000F50
T0C10 1644:496.913 JLINK_ReadReg(R10)
T0C10 1644:496.926 - 0.012ms returns 0x10001544
T0C10 1644:496.939 JLINK_ReadReg(R11)
T0C10 1644:496.951 - 0.012ms returns 0x00000000
T0C10 1644:496.964 JLINK_ReadReg(R12)
T0C10 1644:496.976 - 0.012ms returns 0xFFFFFFFF
T0C10 1644:496.989 JLINK_ReadReg(R13 (SP))
T0C10 1644:497.002 - 0.012ms returns 0x1FFFD588
T0C10 1644:497.014 JLINK_ReadReg(R14)
T0C10 1644:497.027 - 0.012ms returns 0x40001B4C
T0C10 1644:497.040 JLINK_ReadReg(R15 (PC))
T0C10 1644:497.052 - 0.012ms returns 0x10001268
T0C10 1644:497.065 JLINK_ReadReg(XPSR)
T0C10 1644:497.077 - 0.012ms returns 0x61000000
T0C10 1644:497.090 JLINK_ReadReg(MSP)
T0C10 1644:497.102 - 0.012ms returns 0x1FFFD588
T0C10 1644:497.115 JLINK_ReadReg(PSP)
T0C10 1644:497.128 - 0.012ms returns 0x1FFFE000
T0C10 1644:497.140 JLINK_ReadReg(CFBP)
T0C10 1644:497.153 - 0.012ms returns 0x04000000
T0C10 1644:497.166 JLINK_ReadReg(FPSCR)
T0C10 1644:499.838 - 2.671ms returns 0x03000000
T0C10 1644:499.921 JLINK_ReadReg(FPS0)
T0C10 1644:499.957 - 0.035ms returns 0xE84FF817
T0C10 1644:499.988 JLINK_ReadReg(FPS1)
T0C10 1644:500.018 - 0.030ms returns 0xFD4CE975
T0C10 1644:500.049 JLINK_ReadReg(FPS2)
T0C10 1644:500.079 - 0.029ms returns 0xE8D1BB57
T0C10 1644:500.110 JLINK_ReadReg(FPS3)
T0C10 1644:500.139 - 0.029ms returns 0x5C41BF56
T0C10 1644:500.170 JLINK_ReadReg(FPS4)
T0C10 1644:500.199 - 0.029ms returns 0x5BC9A4DC
T0C10 1644:500.230 JLINK_ReadReg(FPS5)
T0C10 1644:500.258 - 0.027ms returns 0xB7BC6DAB
T0C10 1644:500.287 JLINK_ReadReg(FPS6)
T0C10 1644:500.315 - 0.027ms returns 0xE381D187
T0C10 1644:500.344 JLINK_ReadReg(FPS7)
T0C10 1644:500.372 - 0.027ms returns 0x3681EAA5
T0C10 1644:500.401 JLINK_ReadReg(FPS8)
T0C10 1644:500.429 - 0.027ms returns 0x6DCC353D
T0C10 1644:500.458 JLINK_ReadReg(FPS9)
T0C10 1644:500.485 - 0.027ms returns 0xF103B62E
T0C10 1644:500.518 JLINK_ReadReg(FPS10)
T0C10 1644:500.546 - 0.027ms returns 0x7341C8B6
T0C10 1644:500.574 JLINK_ReadReg(FPS11)
T0C10 1644:500.601 - 0.026ms returns 0xD4DBD9E5
T0C10 1644:500.630 JLINK_ReadReg(FPS12)
T0C10 1644:500.656 - 0.026ms returns 0x099D4EB1
T0C10 1644:500.685 JLINK_ReadReg(FPS13)
T0C10 1644:500.717 - 0.032ms returns 0x7370F8EF
T0C10 1644:500.746 JLINK_ReadReg(FPS14)
T0C10 1644:500.772 - 0.026ms returns 0xDF5F4EDC
T0C10 1644:500.801 JLINK_ReadReg(FPS15)
T0C10 1644:500.831 - 0.030ms returns 0xFBC1F9B8
T0C10 1644:500.877 JLINK_ReadReg(FPS16)
T0C10 1644:500.905 - 0.027ms returns 0x5B74D2DF
T0C10 1644:500.933 JLINK_ReadReg(FPS17)
T0C10 1644:500.960 - 0.026ms returns 0xE3C97CF8
T0C10 1644:500.988 JLINK_ReadReg(FPS18)
T0C10 1644:501.015 - 0.026ms returns 0xDCEDF06D
T0C10 1644:501.046 JLINK_ReadReg(FPS19)
T0C10 1644:501.073 - 0.026ms returns 0xE8D6FDF2
T0C10 1644:501.102 JLINK_ReadReg(FPS20)
T0C10 1644:501.129 - 0.026ms returns 0x9B321B1B
T0C10 1644:501.163 JLINK_ReadReg(FPS21)
T0C10 1644:501.196 - 0.032ms returns 0x2D9F77BC
T0C10 1644:501.259 JLINK_ReadReg(FPS22)
T0C10 1644:501.314 - 0.054ms returns 0x9733D659
T0C10 1644:501.371 JLINK_ReadReg(FPS23)
T0C10 1644:501.426 - 0.053ms returns 0x6B441B5D
T0C10 1644:501.483 JLINK_ReadReg(FPS24)
T0C10 1644:501.541 - 0.057ms returns 0xB6F5CFDE
T0C10 1644:501.562 JLINK_ReadReg(FPS25)
T0C10 1644:501.579 - 0.017ms returns 0xFCF6C656
T0C10 1644:501.597 JLINK_ReadReg(FPS26)
T0C10 1644:501.614 - 0.017ms returns 0xD6087D1F
T0C10 1644:501.632 JLINK_ReadReg(FPS27)
T0C10 1644:501.650 - 0.017ms returns 0xB1D574A3
T0C10 1644:501.668 JLINK_ReadReg(FPS28)
T0C10 1644:501.685 - 0.017ms returns 0x41997FE1
T0C10 1644:501.703 JLINK_ReadReg(FPS29)
T0C10 1644:501.721 - 0.017ms returns 0xC240F337
T0C10 1644:501.739 JLINK_ReadReg(FPS30)
T0C10 1644:501.756 - 0.017ms returns 0xBFE7EF7B
T0C10 1644:501.774 JLINK_ReadReg(FPS31)
T0C10 1644:501.792 - 0.017ms returns 0x5B71BBD7
T7BA4 1644:505.644 JLINK_ReadMemEx(0x1FFFD58C, 0x4 Bytes, Flags = 0x02000000)
T7BA4 1644:505.702   CPU_ReadMem(4 bytes @ 0x1FFFD58C)
T7BA4 1644:506.125   Data:  BB 01 00 10
T7BA4 1644:506.152 - 0.508ms returns 4 (0x4)
T7BA4 1644:506.189 JLINK_HasError()
T7BA4 1644:506.206 JLINK_ReadMemU32(0xE0001004, 0x1 Items)
T7BA4 1644:506.225   CPU_ReadMem(4 bytes @ 0xE0001004)
T7BA4 1644:506.546   Data:  FB 48 00 00
T7BA4 1644:506.573   Debug reg: DWT_CYCCNT
T7BA4 1644:506.595 - 0.389ms returns 1 (0x1)
T0C10 1644:909.989 JLINK_ReadMemEx(0x10001268, 0x3C Bytes, Flags = 0x02000000)
T0C10 1644:910.110   CPU_ReadMem(128 bytes @ 0x10001240)
T0C10 1644:910.987    -- Updating DA cache (128 bytes @ 0x10001240)
T0C10 1644:911.060    -- Read from DA cache (60 bytes @ 0x10001268)
T0C10 1644:911.086   Data:  FF F7 F0 FE 5D 48 00 68 40 F2 03 11 88 43 40 F2 ...
T0C10 1644:911.111 - 1.123ms returns 60 (0x3C)
T0C10 1644:911.132 JLINK_ReadMemEx(0x10001268, 0x2 Bytes, Flags = 0x02000000)
T0C10 1644:911.156    -- Read from DA cache (2 bytes @ 0x10001268)
T0C10 1644:911.185   Data:  FF F7
T0C10 1644:911.209 - 0.077ms returns 2 (0x2)
T0C10 1644:911.232 JLINK_ReadMemEx(0x1000126A, 0x2 Bytes, Flags = 0x02000000)
T0C10 1644:911.253    -- Read from DA cache (2 bytes @ 0x1000126A)
T0C10 1644:911.281   Data:  F0 FE
T0C10 1644:911.303 - 0.070ms returns 2 (0x2)
T0C10 1644:911.321 JLINK_ReadMemEx(0x10001268, 0x2 Bytes, Flags = 0x02000000)
T0C10 1644:911.340    -- Read from DA cache (2 bytes @ 0x10001268)
T0C10 1644:911.362   Data:  FF F7
T0C10 1644:911.384 - 0.062ms returns 2 (0x2)
T0C10 1644:911.404 JLINK_HasError()
T0C10 1644:911.426 JLINK_SetBPEx(Addr = 0x1000126C, Type = 0xFFFFFFF2)
T0C10 1644:911.466 - 0.040ms returns 0x00000003
T0C10 1644:911.484 JLINK_HasError()
T0C10 1644:911.500 JLINK_HasError()
T0C10 1644:911.516 JLINK_Go()
T0C10 1644:911.535   CPU_WriteMem(4 bytes @ 0xE0002000)
T0C10 1644:912.053   CPU_ReadMem(4 bytes @ 0xE0001000)
T0C10 1644:912.544   CPU_WriteMem(4 bytes @ 0xE0002008)
T0C10 1644:913.352 - 1.836ms
T0C10 1645:014.144 JLINK_HasError()
T0C10 1645:014.404 JLINK_IsHalted()
T0C10 1645:016.437 - 2.033ms returns TRUE
T0C10 1645:016.498 JLINK_HasError()
T0C10 1645:016.522 JLINK_Halt()
T0C10 1645:016.544 - 0.021ms returns 0x00
T0C10 1645:016.566 JLINK_IsHalted()
T0C10 1645:016.588 - 0.021ms returns TRUE
T0C10 1645:016.611 JLINK_IsHalted()
T0C10 1645:016.632 - 0.020ms returns TRUE
T0C10 1645:016.654 JLINK_IsHalted()
T0C10 1645:016.675 - 0.020ms returns TRUE
T0C10 1645:016.698 JLINK_HasError()
T0C10 1645:016.722 JLINK_ReadReg(R15 (PC))
T0C10 1645:016.746 - 0.024ms returns 0x1000126C
T0C10 1645:016.768 JLINK_ReadReg(XPSR)
T0C10 1645:016.789 - 0.020ms returns 0x21000000
T0C10 1645:016.813 JLINK_HasError()
T0C10 1645:016.835 JLINK_ClrBPEx(BPHandle = 0x00000003)
T0C10 1645:016.856 - 0.021ms returns 0x00
T0C10 1645:016.877 JLINK_HasError()
T0C10 1645:016.898 JLINK_HasError()
T0C10 1645:016.920 JLINK_ReadMemU32(0xE000ED30, 0x1 Items)
T0C10 1645:016.946   CPU_ReadMem(4 bytes @ 0xE000ED30)
T0C10 1645:017.286   Data:  02 00 00 00
T0C10 1645:017.338 - 0.417ms returns 1 (0x1)
T0C10 1645:017.356 JLINK_ReadMemU32(0xE0001028, 0x1 Items)
T0C10 1645:017.377   CPU_ReadMem(4 bytes @ 0xE0001028)
T0C10 1645:017.691   Data:  00 00 00 00
T0C10 1645:017.739   Debug reg: DWT_FUNC[0]
T0C10 1645:017.762 - 0.405ms returns 1 (0x1)
T0C10 1645:017.780 JLINK_ReadMemU32(0xE0001038, 0x1 Items)
T0C10 1645:017.800   CPU_ReadMem(4 bytes @ 0xE0001038)
T0C10 1645:018.102   Data:  00 02 00 00
T0C10 1645:018.149   Debug reg: DWT_FUNC[1]
T0C10 1645:018.172 - 0.391ms returns 1 (0x1)
T0C10 1645:018.190 JLINK_ReadMemU32(0xE0001048, 0x1 Items)
T0C10 1645:018.210   CPU_ReadMem(4 bytes @ 0xE0001048)
T0C10 1645:018.630   Data:  00 00 00 00
T0C10 1645:018.685   Debug reg: DWT_FUNC[2]
T0C10 1645:018.708 - 0.518ms returns 1 (0x1)
T0C10 1645:018.727 JLINK_ReadMemU32(0xE0001058, 0x1 Items)
T0C10 1645:018.748   CPU_ReadMem(4 bytes @ 0xE0001058)
T0C10 1645:019.049   Data:  00 00 00 00
T0C10 1645:019.098   Debug reg: DWT_FUNC[3]
T0C10 1645:019.122 - 0.394ms returns 1 (0x1)
T0C10 1645:019.191 JLINK_HasError()
T0C10 1645:019.211 JLINK_ReadReg(R0)
T0C10 1645:019.229 - 0.017ms returns 0x00000006
T0C10 1645:019.244 JLINK_ReadReg(R1)
T0C10 1645:019.258 - 0.014ms returns 0x1FFFC024
T0C10 1645:019.273 JLINK_ReadReg(R2)
T0C10 1645:019.287 - 0.014ms returns 0x0306020C
T0C10 1645:019.303 JLINK_ReadReg(R3)
T0C10 1645:019.317 - 0.014ms returns 0x40001B40
T0C10 1645:019.331 JLINK_ReadReg(R4)
T0C10 1645:019.346 - 0.014ms returns 0x00000000
T0C10 1645:019.361 JLINK_ReadReg(R5)
T0C10 1645:019.374 - 0.013ms returns 0x1FFFCD30
T0C10 1645:019.388 JLINK_ReadReg(R6)
T0C10 1645:019.402 - 0.013ms returns 0x00000000
T0C10 1645:019.415 JLINK_ReadReg(R7)
T0C10 1645:019.429 - 0.013ms returns 0x00000000
T0C10 1645:019.444 JLINK_ReadReg(R8)
T0C10 1645:019.457 - 0.013ms returns 0x00000000
T0C10 1645:019.471 JLINK_ReadReg(R9)
T0C10 1645:019.485 - 0.013ms returns 0x40000F50
T0C10 1645:019.499 JLINK_ReadReg(R10)
T0C10 1645:019.517 - 0.017ms returns 0x10001544
T0C10 1645:019.530 JLINK_ReadReg(R11)
T0C10 1645:019.542 - 0.012ms returns 0x00000000
T0C10 1645:019.555 JLINK_ReadReg(R12)
T0C10 1645:019.568 - 0.012ms returns 0xFFFFFFFF
T0C10 1645:019.581 JLINK_ReadReg(R13 (SP))
T0C10 1645:019.593 - 0.012ms returns 0x1FFFD588
T0C10 1645:019.606 JLINK_ReadReg(R14)
T0C10 1645:019.619 - 0.012ms returns 0x1000126D
T0C10 1645:019.632 JLINK_ReadReg(R15 (PC))
T0C10 1645:019.644 - 0.012ms returns 0x1000126C
T0C10 1645:019.657 JLINK_ReadReg(XPSR)
T0C10 1645:019.670 - 0.012ms returns 0x21000000
T0C10 1645:019.683 JLINK_ReadReg(MSP)
T0C10 1645:019.695 - 0.012ms returns 0x1FFFD588
T0C10 1645:019.708 JLINK_ReadReg(PSP)
T0C10 1645:019.720 - 0.012ms returns 0x1FFFE000
T0C10 1645:019.733 JLINK_ReadReg(CFBP)
T0C10 1645:019.746 - 0.012ms returns 0x04000000
T0C10 1645:019.759 JLINK_ReadReg(FPSCR)
T0C10 1645:022.389 - 2.629ms returns 0x03000000
T0C10 1645:022.438 JLINK_ReadReg(FPS0)
T0C10 1645:022.459 - 0.021ms returns 0xE84FF817
T0C10 1645:022.478 JLINK_ReadReg(FPS1)
T0C10 1645:022.503 - 0.025ms returns 0xFD4CE975
T0C10 1645:022.526 JLINK_ReadReg(FPS2)
T0C10 1645:022.547 - 0.021ms returns 0xE8D1BB57
T0C10 1645:022.569 JLINK_ReadReg(FPS3)
T0C10 1645:022.590 - 0.020ms returns 0x5C41BF56
T0C10 1645:022.612 JLINK_ReadReg(FPS4)
T0C10 1645:022.633 - 0.021ms returns 0x5BC9A4DC
T0C10 1645:022.655 JLINK_ReadReg(FPS5)
T0C10 1645:022.675 - 0.019ms returns 0xB7BC6DAB
T0C10 1645:022.696 JLINK_ReadReg(FPS6)
T0C10 1645:022.716 - 0.019ms returns 0xE381D187
T0C10 1645:022.736 JLINK_ReadReg(FPS7)
T0C10 1645:022.756 - 0.019ms returns 0x3681EAA5
T0C10 1645:022.777 JLINK_ReadReg(FPS8)
T0C10 1645:022.797 - 0.019ms returns 0x6DCC353D
T0C10 1645:022.817 JLINK_ReadReg(FPS9)
T0C10 1645:022.837 - 0.019ms returns 0xF103B62E
T0C10 1645:022.857 JLINK_ReadReg(FPS10)
T0C10 1645:022.877 - 0.019ms returns 0x7341C8B6
T0C10 1645:022.897 JLINK_ReadReg(FPS11)
T0C10 1645:022.916 - 0.019ms returns 0xD4DBD9E5
T0C10 1645:022.936 JLINK_ReadReg(FPS12)
T0C10 1645:022.955 - 0.018ms returns 0x099D4EB1
T0C10 1645:022.977 JLINK_ReadReg(FPS13)
T0C10 1645:022.998 - 0.021ms returns 0x7370F8EF
T0C10 1645:023.018 JLINK_ReadReg(FPS14)
T0C10 1645:023.037 - 0.018ms returns 0xDF5F4EDC
T0C10 1645:023.056 JLINK_ReadReg(FPS15)
T0C10 1645:023.080 - 0.023ms returns 0xFBC1F9B8
T0C10 1645:023.101 JLINK_ReadReg(FPS16)
T0C10 1645:023.127 - 0.026ms returns 0x5B74D2DF
T0C10 1645:023.146 JLINK_ReadReg(FPS17)
T0C10 1645:023.165 - 0.018ms returns 0xE3C97CF8
T0C10 1645:023.189 JLINK_ReadReg(FPS18)
T0C10 1645:023.203 - 0.013ms returns 0xDCEDF06D
T0C10 1645:023.217 JLINK_ReadReg(FPS19)
T0C10 1645:023.230 - 0.013ms returns 0xE8D6FDF2
T0C10 1645:023.244 JLINK_ReadReg(FPS20)
T0C10 1645:023.257 - 0.013ms returns 0x9B321B1B
T0C10 1645:023.271 JLINK_ReadReg(FPS21)
T0C10 1645:023.284 - 0.013ms returns 0x2D9F77BC
